
T1164 000:040 SEGGER J-Link V6.10i Log File (0001ms, 0023ms total)
T1164 000:040 DLL Compiled: Oct 25 2016 19:31:51 (0001ms, 0023ms total)
T1164 000:040 Logging started @ 2018-03-02 09:28 (0001ms, 0023ms total)
T1164 000:041 JLINK_SetWarnOutHandler(...) (0000ms, 0023ms total)
T1164 000:041 JLINK_OpenEx(...)
Firmware: J-Link V10 compiled Nov 14 2017 11:13:00
Hardware: V10.10
S/N: 50109172
Feature(s): GDBWEBSRV Webserver running on local port 19080 (0009ms, 0032ms total)
T1164 000:041   returns O.K. (0009ms, 0032ms total)
T1164 000:050 JLINK_SetErrorOutHandler(...) (0000ms, 0032ms total)
T1164 000:050 JLINK_ExecCommand("ProjectFile = "C:\CODE\_MultyProj\Eth_VE1_VE3\VE3\JLinkSettings.ini"", ...). Device "CORTEX-M1" selected.  returns 0x00 (0091ms, 0123ms total)
T1164 000:141 JLINK_ExecCommand("Device = MDR1986BE3T", ...). Device "CORTEX-M1" selected.  returns 0x00 (0001ms, 0124ms total)
T1164 000:142 JLINK_ExecCommand("DisableConnectionTimeout", ...).   returns 0x01 (0000ms, 0124ms total)
T1164 000:142 JLINK_GetHardwareVersion()  returns 0x18A88 (0000ms, 0124ms total)
T1164 000:142 JLINK_GetDLLVersion()  returns 61009 (0000ms, 0124ms total)
T1164 000:142 JLINK_GetFirmwareString(...) (0000ms, 0124ms total)
T1164 000:142 JLINK_GetDLLVersion()  returns 61009 (0000ms, 0124ms total)
T1164 000:142 JLINK_GetCompileDateTime() (0000ms, 0124ms total)
T1164 000:142 JLINK_GetFirmwareString(...) (0000ms, 0124ms total)
T1164 000:142 JLINK_GetHardwareVersion()  returns 0x18A88 (0000ms, 0124ms total)
T1164 000:142 JLINK_TIF_Select(JLINKARM_TIF_SWD)  returns 0x00 (0001ms, 0125ms total)
T1164 000:143 JLINK_SetSpeed(2000) (0000ms, 0125ms total)
T1164 000:143 JLINK_GetId() >0x108 TIF>Found SWD-DP with ID 0x2BA01477 >0x0D TIF> >0x28 TIF> >0x0D TIF> >0x28 TIF> >0x0D TIF> >0x28 TIF> >0x0D TIF> >0x28 TIF> >0x0D TIF> >0x21 TIF> >0x0D TIF> >0x28 TIF> >0x0D TIF> >0x28 TIF> >0x0D TIF> >0x21 TIF> >0x0D TIF> >0x21 TIF> >0x0D TIF> >0x21 TIF>AP-IDR: 0x44770001, Type: AHB-AP >0x0D TIF> >0x28 TIF> >0x0D TIF> >0x28 TIF> >0x0D TIF> >0x28 TIF> >0x0D TIF> >0x21 TIF> >0x0D TIF> >0x21 TIF> >0x0D TIF> >0x28 TIF> >0x0D TIF> >0x21 TIF> >0x0D TIF> >0x21 TIF>
Found Cortex-M1 r1p0, Little endian. -- CPU_ReadMem(4 bytes @ 0xE000EDF0) -- CPU_WriteMem(4 bytes @ 0xE000EDF0) -- CPU_ReadMem(4 bytes @ 0xE0002000)FPUnit: 4 code (BP) slots and 0 literal slots -- CPU_ReadMem(4 bytes @ 0xE000EDFC) -- CPU_WriteMem(4 bytes @ 0xE000EDFC) -- CPU_ReadMem(4 bytes @ 0xE0001000) -- CPU_WriteMem(4 bytes @ 0xE0001000)CoreSight components:ROMTbl 0 @ E00FF000 -- CPU_ReadMem(16 bytes @ 0xE00FF000) -- CPU_ReadMem(16 bytes @ 0xE000EFF0) -- CPU_ReadMem(16 bytes @ 0xE000EFE0)
ROMTbl 0 [0]: FFF0F000, CID: 00000000, PID: 00000000 ??? -- CPU_ReadMem(16 bytes @ 0xE0001FF0) -- CPU_ReadMem(16 bytes @ 0xE0001FE0)ROMTbl 0 [1]: FFF02000, CID: 00000000, PID: 00000000 ??? -- CPU_ReadMem(16 bytes @ 0xE0002FF0) -- CPU_ReadMem(16 bytes @ 0xE0002FE0)ROMTbl 0 [2]: FFF03000, CID: 00000000, PID: 00000000 ??? >0x0D TIF> >0x21 TIF>  returns 0x2BA01477 (0015ms, 0140ms total)
T1164 000:158 JLINK_GetDLLVersion()  returns 61009 (0000ms, 0140ms total)
T1164 000:158 JLINK_CORE_GetFound()  returns 0x10000FF (0000ms, 0140ms total)
T1164 000:158 JLINK_GetDebugInfo(0x100) -- Value=0xE00FF000  returns 0x00 (0000ms, 0140ms total)
T1164 000:158 JLINK_GetDebugInfo(0x100) -- Value=0xE00FF000  returns 0x00 (0000ms, 0140ms total)
T1164 000:158 JLINK_GetDebugInfo(0x101) -- Value=0x00000000  returns 0x00 (0000ms, 0140ms total)
T1164 000:158 JLINK_ReadMem (0xE0041FF0, 0x0010 Bytes, ...) -- CPU is running -- CPU_ReadMem(16 bytes @ 0xE0041FF0) - Data: 00 00 00 00 00 00 00 00 00 00 00 00 00 00 00 00  returns 0x00 (0000ms, 0140ms total)
T1164 000:158 JLINK_GetDebugInfo(0x102) -- Value=0x00000000  returns 0x00 (0000ms, 0140ms total)
T1164 000:158 JLINK_GetDebugInfo(0x103) -- Value=0x00000000  returns 0x00 (0000ms, 0140ms total)
T1164 000:158 JLINK_ReadMem (0xE0040FF0, 0x0010 Bytes, ...) -- CPU is running -- CPU_ReadMem(16 bytes @ 0xE0040FF0) - Data: 00 00 00 00 00 00 00 00 00 00 00 00 00 00 00 00  returns 0x00 (0001ms, 0141ms total)
T1164 000:159 JLINK_GetDebugInfo(0x104) -- Value=0xE0000000  returns 0x00 (0000ms, 0141ms total)
T1164 000:159 JLINK_GetDebugInfo(0x105) -- Value=0xE0001000  returns 0x00 (0000ms, 0141ms total)
T1164 000:159 JLINK_GetDebugInfo(0x106) -- Value=0xE0002000  returns 0x00 (0000ms, 0141ms total)
T1164 000:159 JLINK_GetDebugInfo(0x107) -- Value=0xE000E000  returns 0x00 (0000ms, 0141ms total)
T1164 000:159 JLINK_GetDebugInfo(0x10C) -- Value=0xE000EDF0  returns 0x00 (0000ms, 0141ms total)
T1164 000:159 JLINK_ReadMemU32(0xE000ED00, 0x0001 Items, ...) -- CPU is running -- CPU_ReadMem(4 bytes @ 0xE000ED00) - Data: 10 C2 1C 41  returns 0x01 (0000ms, 0141ms total)
T1164 000:159 JLINK_SetResetType(JLINKARM_RESET_TYPE_ADI)  returns JLINKARM_RESET_TYPE_NORMAL (0000ms, 0141ms total)
T1164 000:159 JLINK_Reset() -- CPU is running -- CPU_WriteMem(4 bytes @ 0xE000EDF0) -- CPU is running -- CPU_WriteMem(4 bytes @ 0xE000EDFC) -- CPU_WriteMem(4 bytes @ 0xE000EDF0) -- CPU_WriteMem(4 bytes @ 0xE000EDFC) -- CPU_ReadMem(4 bytes @ 0xE000EDF0) -- CPU_WriteMem(4 bytes @ 0xE000EDFC) -- CPU_WriteMem(4 bytes @ 0xE000ED0C) -- CPU_ReadMem(4 bytes @ 0xE000EDF0) -- CPU_ReadMem(4 bytes @ 0xE000EDF0) -- CPU_WriteMem(4 bytes @ 0xE000EDF0) -- CPU_WriteMem(4 bytes @ 0xE000EDFC) -- CPU is running
 -- CPU_ReadMem(4 bytes @ 0xE000EDF0) -- CPU_WriteMem(4 bytes @ 0xE0002000) -- CPU_ReadMem(4 bytes @ 0xE000EDFC) -- CPU_ReadMem(4 bytes @ 0xE0001000) -- CPU_WriteMem(4 bytes @ 0xE0001000) (0155ms, 0296ms total)
T1164 000:314 JLINK_ReadReg(R15 (PC))  returns 0x00000148 (0000ms, 0296ms total)
T1164 000:314 JLINK_ReadReg(XPSR)  returns 0x01000000 (0000ms, 0296ms total)
T1164 000:314 JLINK_Halt()  returns 0x00 (0000ms, 0296ms total)
T1164 000:314 JLINK_IsHalted()  returns TRUE (0000ms, 0296ms total)
T1164 000:314 JLINK_ReadMemU32(0xE000EDF0, 0x0001 Items, ...) -- CPU_ReadMem(4 bytes @ 0xE000EDF0) - Data: 03 00 03 00  returns 0x01 (0001ms, 0297ms total)
T1164 000:315 JLINK_WriteU32(0xE000EDF0, 0xA05F0003) -- CPU_WriteMem(4 bytes @ 0xE000EDF0)  returns 0x00 (0001ms, 0298ms total)
T1164 000:316 JLINK_WriteU32(0xE000EDFC, 0x01000000) -- CPU_WriteMem(4 bytes @ 0xE000EDFC)  returns 0x00 (0000ms, 0298ms total)
T1164 000:316 JLINK_GetHWStatus(...)  returns 0x00 (0001ms, 0299ms total)
T1164 000:317 JLINK_GetNumBPUnits(Type = 0xFFFFFF00)  returns 0x04 (0000ms, 0299ms total)
T1164 000:317 JLINK_GetNumBPUnits(Type = 0xF0)  returns 0x2000 (0000ms, 0299ms total)
T1164 000:317 JLINK_GetNumWPUnits()  returns 0x02 (0000ms, 0299ms total)
T1164 000:317 JLINK_GetSpeed()  returns 0x7D0 (0000ms, 0299ms total)
T1164 000:317 JLINK_ReadMemU32(0xE000E004, 0x0001 Items, ...) -- CPU_ReadMem(4 bytes @ 0xE000E004) - Data: 00 00 00 00  returns 0x01 (0001ms, 0300ms total)
T1164 000:318 JLINK_ReadReg(R15 (PC))  returns 0x00000148 (0000ms, 0300ms total)
T1164 000:318 JLINK_ReadReg(XPSR)  returns 0x01000000 (0000ms, 0300ms total)
T1164 000:401 JLINK_SetResetType(JLINKARM_RESET_TYPE_ADI)  returns JLINKARM_RESET_TYPE_ADI (0000ms, 0300ms total)
T1164 000:401 JLINK_Reset() -- CPU_WriteMem(4 bytes @ 0xE000EDF0) -- CPU_WriteMem(4 bytes @ 0xE000EDFC) -- CPU_WriteMem(4 bytes @ 0xE000EDF0) -- CPU_WriteMem(4 bytes @ 0xE000EDFC) -- CPU_ReadMem(4 bytes @ 0xE000EDF0) -- CPU_WriteMem(4 bytes @ 0xE000EDFC) -- CPU_WriteMem(4 bytes @ 0xE000ED0C) -- CPU_ReadMem(4 bytes @ 0xE000EDF0) -- CPU_ReadMem(4 bytes @ 0xE000EDF0) -- CPU_WriteMem(4 bytes @ 0xE000EDF0) -- CPU_WriteMem(4 bytes @ 0xE000EDFC) -- CPU is running -- CPU_ReadMem(4 bytes @ 0xE000EDF0)
 -- CPU_WriteMem(4 bytes @ 0xE0002000) -- CPU_ReadMem(4 bytes @ 0xE000EDFC) -- CPU_ReadMem(4 bytes @ 0xE0001000) -- CPU_WriteMem(4 bytes @ 0xE0001000) (0149ms, 0449ms total)
T1164 000:550 JLINK_ReadReg(R15 (PC))  returns 0x00000148 (0000ms, 0449ms total)
T1164 000:550 JLINK_ReadReg(XPSR)  returns 0x01000000 (0000ms, 0449ms total)
T1164 000:551 JLINK_ReadMem (0x000000C0, 0x003C Bytes, ...) -- CPU_ReadMem(60 bytes @ 0x000000C0) - Data: 00 F0 02 F8 00 F0 30 F8 0C A0 30 C8 08 38 24 18 ...  returns 0x00 (0000ms, 0449ms total)
T1164 000:551 JLINK_ReadMem (0x000000FC, 0x003C Bytes, ...) -- CPU_ReadMem(60 bytes @ 0x000000FC) - Data: B4 14 00 00 D4 14 00 00 00 23 00 24 00 25 00 26 ...  returns 0x00 (0001ms, 0450ms total)
T1164 000:552 JLINK_ReadMem (0x00000138, 0x003C Bytes, ...) -- CPU_ReadMem(60 bytes @ 0x00000138) - Data: F8 F8 03 B4 FF F7 F2 FF 03 BC 00 F0 2D F9 00 00 ...  returns 0x00 (0001ms, 0451ms total)
T14E4 001:410 JLINK_SetBPEx(Addr = 0x00001434, Type = 0xFFFFFFF2)  returns 0x00000001 (0000ms, 0451ms total)
T14E4 001:410 JLINK_SetBPEx(Addr = 0x0000145A, Type = 0xFFFFFFF2)  returns 0x00000002 (0000ms, 0451ms total)
T14E4 001:410 JLINK_Go() -- CPU_WriteMem(4 bytes @ 0xE0002000) -- CPU_WriteMem(4 bytes @ 0xE0002000) -- CPU_ReadMem(4 bytes @ 0xE0001000) -- CPU_WriteMem(4 bytes @ 0xE0001000) -- CPU_WriteMem(4 bytes @ 0xE0002008) -- CPU_WriteMem(4 bytes @ 0xE000200C) -- CPU_WriteMem(4 bytes @ 0xE0002010) -- CPU_WriteMem(4 bytes @ 0xE0002014) -- CPU_WriteMem(4 bytes @ 0xE0001004) (0004ms, 0455ms total)
T14E4 001:514 JLINK_IsHalted()  returns TRUE (0003ms, 0458ms total)
T14E4 001:517 JLINK_Halt()  returns 0x00 (0000ms, 0455ms total)
T14E4 001:517 JLINK_IsHalted()  returns TRUE (0001ms, 0456ms total)
T14E4 001:518 JLINK_IsHalted()  returns TRUE (0000ms, 0455ms total)
T14E4 001:518 JLINK_IsHalted()  returns TRUE (0000ms, 0455ms total)
T14E4 001:518 JLINK_ReadReg(R15 (PC))  returns 0x00001434 (0000ms, 0455ms total)
T14E4 001:518 JLINK_ReadReg(XPSR)  returns 0x01000000 (0000ms, 0455ms total)
T14E4 001:518 JLINK_ClrBPEx(BPHandle = 0x00000001)  returns 0x00 (0000ms, 0455ms total)
T14E4 001:518 JLINK_ClrBPEx(BPHandle = 0x00000002)  returns 0x00 (0000ms, 0455ms total)
T14E4 001:518 JLINK_ReadMemU32(0xE000ED30, 0x0001 Items, ...) -- CPU_ReadMem(4 bytes @ 0xE000ED30) - Data: 02 00 00 00  returns 0x01 (0001ms, 0456ms total)
T14E4 001:519 JLINK_ReadMemU32(0xE0001028, 0x0001 Items, ...) -- CPU_ReadMem(4 bytes @ 0xE0001028) - Data: 00 00 00 00  returns 0x01 (0000ms, 0456ms total)
T14E4 001:519 JLINK_ReadMemU32(0xE0001038, 0x0001 Items, ...) -- CPU_ReadMem(4 bytes @ 0xE0001038) - Data: 00 00 00 00  returns 0x01 (0001ms, 0457ms total)
T14E4 001:520 JLINK_ReadReg(R0)  returns 0x20000C60 (0000ms, 0457ms total)
T14E4 001:520 JLINK_ReadReg(R1)  returns 0x20001C60 (0000ms, 0457ms total)
T14E4 001:520 JLINK_ReadReg(R2)  returns 0x20001C60 (0000ms, 0457ms total)
T14E4 001:520 JLINK_ReadReg(R3)  returns 0x20001C60 (0000ms, 0457ms total)
T14E4 001:520 JLINK_ReadReg(R4)  returns 0x000015D0 (0000ms, 0457ms total)
T14E4 001:520 JLINK_ReadReg(R5)  returns 0x20000C00 (0001ms, 0458ms total)
T14E4 001:521 JLINK_ReadReg(R6)  returns 0x00000000 (0000ms, 0458ms total)
T14E4 001:521 JLINK_ReadReg(R7)  returns 0x00000000 (0000ms, 0458ms total)
T14E4 001:521 JLINK_ReadReg(R8)  returns 0x00000000 (0000ms, 0458ms total)
T14E4 001:521 JLINK_ReadReg(R9)  returns 0x201001BC (0000ms, 0458ms total)
T14E4 001:521 JLINK_ReadReg(R10)  returns 0x000015D0 (0000ms, 0458ms total)
T14E4 001:521 JLINK_ReadReg(R11)  returns 0x000015D0 (0000ms, 0458ms total)
T14E4 001:521 JLINK_ReadReg(R12)  returns 0x00000000 (0000ms, 0458ms total)
T14E4 001:521 JLINK_ReadReg(R13 (SP))  returns 0x20002C60 (0000ms, 0458ms total)
T14E4 001:521 JLINK_ReadReg(R14)  returns 0x00000137 (0000ms, 0458ms total)
T14E4 001:521 JLINK_ReadReg(R15 (PC))  returns 0x00001434 (0000ms, 0458ms total)
T14E4 001:521 JLINK_ReadReg(XPSR)  returns 0x01000000 (0000ms, 0458ms total)
T14E4 001:521 JLINK_ReadReg(MSP)  returns 0x20002C60 (0000ms, 0458ms total)
T14E4 001:521 JLINK_ReadReg(PSP)  returns 0x00000000 (0000ms, 0458ms total)
T14E4 001:521 JLINK_ReadReg(CFBP)  returns 0x00000000 (0000ms, 0458ms total)
T1164 001:527 JLINK_ReadMem (0x00001334, 0x003C Bytes, ...) -- CPU_ReadMem(128 bytes @ 0x00001300) -- Updating DA cache (128 bytes @ 0x00001300) -- Read from DA cache (60 bytes @ 0x00001334) - Data: 87 FF 05 46 00 98 40 1C 00 90 03 21 49 02 00 98 ...  returns 0x00 (0002ms, 0460ms total)
T1164 001:529 JLINK_ReadMem (0x00001370, 0x003C Bytes, ...) -- CPU_ReadMem(64 bytes @ 0x00001380) -- Updating DA cache (64 bytes @ 0x00001380) -- Read from DA cache (60 bytes @ 0x00001370) - Data: 10 43 04 E0 01 23 9B 05 02 46 9A 43 10 46 01 4A ...  returns 0x00 (0001ms, 0461ms total)
T1164 001:530 JLINK_ReadMem (0x000013AC, 0x003C Bytes, ...) -- CPU_ReadMem(64 bytes @ 0x000013C0) -- Updating DA cache (64 bytes @ 0x000013C0) -- Read from DA cache (60 bytes @ 0x000013AC) - Data: 17 20 FF F7 49 FF 00 28 01 D0 01 24 00 E0 00 24 ...  returns 0x00 (0001ms, 0462ms total)
T1164 001:531 JLINK_ReadMem (0x000013E8, 0x0018 Bytes, ...) -- Read from DA cache (24 bytes @ 0x000013E8) - Data: FF F7 CE FF 00 20 FF F7 01 FF 0E 48 C0 68 00 20 ...  returns 0x00 (0000ms, 0462ms total)
T1164 001:531 JLINK_ReadMem (0x00001400, 0x0024 Bytes, ...) -- CPU_ReadMem(64 bytes @ 0x00001400) -- Updating DA cache (64 bytes @ 0x00001400) -- Read from DA cache (36 bytes @ 0x00001400) - Data: 00 20 48 60 08 46 80 68 00 20 88 60 08 46 00 69 ...  returns 0x00 (0001ms, 0463ms total)
T1164 001:532 JLINK_ReadMem (0x00001424, 0x003C Bytes, ...) -- CPU_ReadMem(64 bytes @ 0x00001440) -- Updating DA cache (64 bytes @ 0x00001440) -- Read from DA cache (60 bytes @ 0x00001424) - Data: 02 48 C8 61 00 BD 00 00 00 00 02 40 10 00 00 08 ...  returns 0x00 (0001ms, 0464ms total)
T14E4 004:886 JLINK_SetBPEx(Addr = 0x0000145A, Type = 0xFFFFFFF2)  returns 0x00000003 (0000ms, 0464ms total)
T14E4 004:886 JLINK_Go() -- CPU_WriteMem(4 bytes @ 0xE0002000) -- CPU_ReadMem(4 bytes @ 0xE0001000) -- CPU_WriteMem(4 bytes @ 0xE0001000) -- CPU_WriteMem(4 bytes @ 0xE0002008) -- CPU_WriteMem(4 bytes @ 0xE000200C) (0003ms, 0467ms total)
T14E4 004:989 JLINK_IsHalted()  returns TRUE (0004ms, 0471ms total)
T14E4 004:993 JLINK_Halt()  returns 0x00 (0000ms, 0467ms total)
T14E4 004:993 JLINK_IsHalted()  returns TRUE (0000ms, 0467ms total)
T14E4 004:993 JLINK_IsHalted()  returns TRUE (0000ms, 0467ms total)
T14E4 004:993 JLINK_IsHalted()  returns TRUE (0000ms, 0467ms total)
T14E4 004:993 JLINK_ReadReg(R15 (PC))  returns 0x0000145A (0000ms, 0467ms total)
T14E4 004:993 JLINK_ReadReg(XPSR)  returns 0x01000000 (0000ms, 0467ms total)
T14E4 004:993 JLINK_ClrBPEx(BPHandle = 0x00000003)  returns 0x00 (0000ms, 0467ms total)
T14E4 004:993 JLINK_ReadMemU32(0xE000ED30, 0x0001 Items, ...) -- CPU_ReadMem(4 bytes @ 0xE000ED30) - Data: 02 00 00 00  returns 0x01 (0001ms, 0468ms total)
T14E4 004:994 JLINK_ReadMemU32(0xE0001028, 0x0001 Items, ...) -- CPU_ReadMem(4 bytes @ 0xE0001028) - Data: 00 00 00 00  returns 0x01 (0000ms, 0468ms total)
T14E4 004:994 JLINK_ReadMemU32(0xE0001038, 0x0001 Items, ...) -- CPU_ReadMem(4 bytes @ 0xE0001038) - Data: 00 00 00 00  returns 0x01 (0001ms, 0469ms total)
T14E4 004:995 JLINK_ReadReg(R0)  returns 0x30000000 (0000ms, 0469ms total)
T14E4 004:995 JLINK_ReadReg(R1)  returns 0x00000001 (0000ms, 0469ms total)
T14E4 004:995 JLINK_ReadReg(R2)  returns 0x0000854C (0000ms, 0469ms total)
T14E4 004:995 JLINK_ReadReg(R3)  returns 0x00008000 (0000ms, 0469ms total)
T14E4 004:995 JLINK_ReadReg(R4)  returns 0x000015D0 (0001ms, 0470ms total)
T14E4 004:996 JLINK_ReadReg(R5)  returns 0x20000C00 (0000ms, 0470ms total)
T14E4 004:996 JLINK_ReadReg(R6)  returns 0x00000000 (0000ms, 0470ms total)
T14E4 004:996 JLINK_ReadReg(R7)  returns 0x00000000 (0000ms, 0470ms total)
T14E4 004:996 JLINK_ReadReg(R8)  returns 0x00000000 (0000ms, 0470ms total)
T14E4 004:996 JLINK_ReadReg(R9)  returns 0x201001BC (0000ms, 0470ms total)
T14E4 004:996 JLINK_ReadReg(R10)  returns 0x000015D0 (0000ms, 0470ms total)
T14E4 004:996 JLINK_ReadReg(R11)  returns 0x000015D0 (0000ms, 0470ms total)
T14E4 004:996 JLINK_ReadReg(R12)  returns 0x00000000 (0000ms, 0470ms total)
T14E4 004:996 JLINK_ReadReg(R13 (SP))  returns 0x20002BD8 (0000ms, 0470ms total)
T14E4 004:996 JLINK_ReadReg(R14)  returns 0x00000F03 (0000ms, 0470ms total)
T14E4 004:996 JLINK_ReadReg(R15 (PC))  returns 0x0000145A (0000ms, 0470ms total)
T14E4 004:996 JLINK_ReadReg(XPSR)  returns 0x01000000 (0000ms, 0470ms total)
T14E4 004:996 JLINK_ReadReg(MSP)  returns 0x20002BD8 (0000ms, 0470ms total)
T14E4 004:996 JLINK_ReadReg(PSP)  returns 0x00000000 (0000ms, 0470ms total)
T14E4 004:996 JLINK_ReadReg(CFBP)  returns 0x00000000 (0000ms, 0470ms total)
T1164 004:998 JLINK_ReadMem (0x00001452, 0x0002 Bytes, ...) -- CPU_ReadMem(64 bytes @ 0x00001440) -- Updating DA cache (64 bytes @ 0x00001440) -- Read from DA cache (2 bytes @ 0x00001452) - Data: 03 20  returns 0x00 (0002ms, 0472ms total)
T1164 005:000 JLINK_ReadMem (0x00001454, 0x003C Bytes, ...) -- CPU_ReadMem(64 bytes @ 0x00001480) -- Updating DA cache (64 bytes @ 0x00001480) -- Read from DA cache (60 bytes @ 0x00001454) - Data: 00 07 FF F7 9B F8 01 21 07 20 FF F7 ED F8 01 20 ...  returns 0x00 (0001ms, 0473ms total)
T14E4 006:710 JLINK_Step() -- Read from DA cache (2 bytes @ 0x0000145A) -- CPU_ReadMem(4 bytes @ 0xE000ED18) -- CPU_WriteMem(4 bytes @ 0xE000ED18) -- CPU_ReadMem(4 bytes @ 0xE000ED18) -- CPU_WriteMem(4 bytes @ 0xE000ED18) -- CPU_ReadMem(4 bytes @ 0xE0001004) -- Simulated  returns 0x00 (0003ms, 0476ms total)
T14E4 006:713 JLINK_ReadReg(R15 (PC))  returns 0x0000145C (0000ms, 0476ms total)
T14E4 006:713 JLINK_ReadReg(XPSR)  returns 0x01000000 (0000ms, 0476ms total)
T14E4 006:713 JLINK_Step() -- Read from DA cache (2 bytes @ 0x0000145C) -- Simulated  returns 0x00 (0000ms, 0476ms total)
T14E4 006:713 JLINK_ReadReg(R15 (PC))  returns 0x0000145E (0000ms, 0476ms total)
T14E4 006:713 JLINK_ReadReg(XPSR)  returns 0x01000000 (0000ms, 0476ms total)
T14E4 006:713 JLINK_SetBPEx(Addr = 0x00001462, Type = 0xFFFFFFF2)  returns 0x00000004 (0000ms, 0476ms total)
T14E4 006:713 JLINK_SetBPEx(Addr = 0x0000145A, Type = 0xFFFFFFF2)  returns 0x00000005 (0000ms, 0476ms total)
T14E4 006:713 JLINK_Go() -- CPU_WriteMem(4 bytes @ 0xE0002000) -- CPU_WriteMem(4 bytes @ 0xE0002000) -- CPU_ReadMem(4 bytes @ 0xE0001000) -- CPU_WriteMem(4 bytes @ 0xE0001000) -- CPU_WriteMem(4 bytes @ 0xE0002008) -- CPU_WriteMem(4 bytes @ 0xE000200C) -- CPU_WriteMem(4 bytes @ 0xE0001004) (0005ms, 0481ms total)
T14E4 006:818 JLINK_IsHalted()  returns TRUE (0004ms, 0485ms total)
T14E4 006:822 JLINK_Halt()  returns 0x00 (0000ms, 0481ms total)
T14E4 006:822 JLINK_IsHalted()  returns TRUE (0000ms, 0481ms total)
T14E4 006:822 JLINK_IsHalted()  returns TRUE (0000ms, 0481ms total)
T14E4 006:822 JLINK_IsHalted()  returns TRUE (0000ms, 0481ms total)
T14E4 006:822 JLINK_ReadReg(R15 (PC))  returns 0x00001462 (0000ms, 0481ms total)
T14E4 006:822 JLINK_ReadReg(XPSR)  returns 0x21000000 (0000ms, 0481ms total)
T14E4 006:822 JLINK_ClrBPEx(BPHandle = 0x00000004)  returns 0x00 (0000ms, 0481ms total)
T14E4 006:822 JLINK_ClrBPEx(BPHandle = 0x00000005)  returns 0x00 (0001ms, 0482ms total)
T14E4 006:823 JLINK_ReadMemU32(0xE000ED30, 0x0001 Items, ...) -- CPU_ReadMem(4 bytes @ 0xE000ED30) - Data: 02 00 00 00  returns 0x01 (0000ms, 0482ms total)
T14E4 006:823 JLINK_ReadMemU32(0xE0001028, 0x0001 Items, ...) -- CPU_ReadMem(4 bytes @ 0xE0001028) - Data: 00 00 00 00  returns 0x01 (0001ms, 0483ms total)
T14E4 006:824 JLINK_ReadMemU32(0xE0001038, 0x0001 Items, ...) -- CPU_ReadMem(4 bytes @ 0xE0001038) - Data: 00 00 00 00  returns 0x01 (0001ms, 0484ms total)
T14E4 006:825 JLINK_ReadReg(R0)  returns 0x400B0000 (0000ms, 0484ms total)
T14E4 006:825 JLINK_ReadReg(R1)  returns 0x00000007 (0000ms, 0484ms total)
T14E4 006:825 JLINK_ReadReg(R2)  returns 0x0000854C (0000ms, 0484ms total)
T14E4 006:825 JLINK_ReadReg(R3)  returns 0x00008000 (0000ms, 0484ms total)
T14E4 006:825 JLINK_ReadReg(R4)  returns 0x000015D0 (0000ms, 0484ms total)
T14E4 006:825 JLINK_ReadReg(R5)  returns 0x20000C00 (0000ms, 0484ms total)
T14E4 006:825 JLINK_ReadReg(R6)  returns 0x00000000 (0000ms, 0484ms total)
T14E4 006:825 JLINK_ReadReg(R7)  returns 0x00000000 (0000ms, 0484ms total)
T14E4 006:825 JLINK_ReadReg(R8)  returns 0x00000000 (0000ms, 0484ms total)
T14E4 006:825 JLINK_ReadReg(R9)  returns 0x201001BC (0000ms, 0484ms total)
T14E4 006:825 JLINK_ReadReg(R10)  returns 0x000015D0 (0001ms, 0485ms total)
T14E4 006:826 JLINK_ReadReg(R11)  returns 0x000015D0 (0000ms, 0485ms total)
T14E4 006:826 JLINK_ReadReg(R12)  returns 0x00000000 (0000ms, 0485ms total)
T14E4 006:826 JLINK_ReadReg(R13 (SP))  returns 0x20002BD8 (0000ms, 0485ms total)
T14E4 006:826 JLINK_ReadReg(R14)  returns 0x0000064F (0000ms, 0485ms total)
T14E4 006:826 JLINK_ReadReg(R15 (PC))  returns 0x00001462 (0000ms, 0485ms total)
T14E4 006:826 JLINK_ReadReg(XPSR)  returns 0x21000000 (0000ms, 0485ms total)
T14E4 006:826 JLINK_ReadReg(MSP)  returns 0x20002BD8 (0000ms, 0485ms total)
T14E4 006:826 JLINK_ReadReg(PSP)  returns 0x00000000 (0000ms, 0485ms total)
T14E4 006:826 JLINK_ReadReg(CFBP)  returns 0x00000000 (0000ms, 0485ms total)
T1164 006:830 JLINK_ReadMem (0x0000145A, 0x0002 Bytes, ...) -- CPU_ReadMem(64 bytes @ 0x00001440) -- Updating DA cache (64 bytes @ 0x00001440) -- Read from DA cache (2 bytes @ 0x0000145A) - Data: 01 21  returns 0x00 (0001ms, 0486ms total)
T1164 006:831 JLINK_ReadMem (0x0000145C, 0x003C Bytes, ...) -- CPU_ReadMem(64 bytes @ 0x00001480) -- Updating DA cache (64 bytes @ 0x00001480) -- Read from DA cache (60 bytes @ 0x0000145C) - Data: 07 20 FF F7 ED F8 01 20 02 90 60 E0 03 A9 03 20 ...  returns 0x00 (0001ms, 0487ms total)
T14E4 008:678 JLINK_Step() -- Read from DA cache (2 bytes @ 0x00001462) -- CPU_ReadMem(4 bytes @ 0xE0001004) -- Simulated  returns 0x00 (0001ms, 0488ms total)
T14E4 008:679 JLINK_ReadReg(R15 (PC))  returns 0x00001464 (0000ms, 0488ms total)
T14E4 008:679 JLINK_ReadReg(XPSR)  returns 0x21000000 (0000ms, 0488ms total)
T14E4 008:679 JLINK_Step() -- Read from DA cache (2 bytes @ 0x00001464) -- Not simulated -- CPU_WriteMem(4 bytes @ 0xE0002008) -- CPU_WriteMem(4 bytes @ 0xE000200C) -- CPU_WriteMem(4 bytes @ 0xE0001004)  returns 0x00 (0006ms, 0494ms total)
T14E4 008:685 JLINK_ReadReg(R15 (PC))  returns 0x00001466 (0000ms, 0494ms total)
T14E4 008:685 JLINK_ReadReg(XPSR)  returns 0x21000000 (0000ms, 0494ms total)
T14E4 008:685 JLINK_ReadReg(R0)  returns 0x00000001 (0000ms, 0494ms total)
T14E4 008:685 JLINK_ReadReg(R1)  returns 0x00000007 (0000ms, 0494ms total)
T14E4 008:685 JLINK_ReadReg(R2)  returns 0x0000854C (0000ms, 0494ms total)
T14E4 008:685 JLINK_ReadReg(R3)  returns 0x00008000 (0000ms, 0494ms total)
T14E4 008:685 JLINK_ReadReg(R4)  returns 0x000015D0 (0000ms, 0494ms total)
T14E4 008:685 JLINK_ReadReg(R5)  returns 0x20000C00 (0000ms, 0494ms total)
T14E4 008:685 JLINK_ReadReg(R6)  returns 0x00000000 (0000ms, 0494ms total)
T14E4 008:685 JLINK_ReadReg(R7)  returns 0x00000000 (0000ms, 0494ms total)
T14E4 008:685 JLINK_ReadReg(R8)  returns 0x00000000 (0000ms, 0494ms total)
T14E4 008:686 JLINK_ReadReg(R9)  returns 0x201001BC (0000ms, 0494ms total)
T14E4 008:686 JLINK_ReadReg(R10)  returns 0x000015D0 (0000ms, 0494ms total)
T14E4 008:686 JLINK_ReadReg(R11)  returns 0x000015D0 (0000ms, 0494ms total)
T14E4 008:686 JLINK_ReadReg(R12)  returns 0x00000000 (0000ms, 0494ms total)
T14E4 008:686 JLINK_ReadReg(R13 (SP))  returns 0x20002BD8 (0000ms, 0494ms total)
T14E4 008:686 JLINK_ReadReg(R14)  returns 0x0000064F (0000ms, 0494ms total)
T14E4 008:686 JLINK_ReadReg(R15 (PC))  returns 0x00001466 (0000ms, 0494ms total)
T14E4 008:686 JLINK_ReadReg(XPSR)  returns 0x21000000 (0000ms, 0494ms total)
T14E4 008:686 JLINK_ReadReg(MSP)  returns 0x20002BD8 (0000ms, 0494ms total)
T14E4 008:686 JLINK_ReadReg(PSP)  returns 0x00000000 (0000ms, 0494ms total)
T14E4 008:686 JLINK_ReadReg(CFBP)  returns 0x00000000 (0000ms, 0494ms total)
T1164 008:689 JLINK_ReadMem (0x00001462, 0x0002 Bytes, ...) -- CPU_ReadMem(64 bytes @ 0x00001440) -- Updating DA cache (64 bytes @ 0x00001440) -- Read from DA cache (2 bytes @ 0x00001462) - Data: 01 20  returns 0x00 (0001ms, 0495ms total)
T1164 008:690 JLINK_ReadMem (0x00001464, 0x003C Bytes, ...) -- CPU_ReadMem(64 bytes @ 0x00001480) -- Updating DA cache (64 bytes @ 0x00001480) -- Read from DA cache (60 bytes @ 0x00001464) - Data: 02 90 60 E0 03 A9 03 20 00 07 FF F7 D3 F8 00 28 ...  returns 0x00 (0002ms, 0497ms total)
T14E4 009:382 JLINK_Step() -- Read from DA cache (2 bytes @ 0x00001466) -- CPU_ReadMem(4 bytes @ 0xE0001004) -- Simulated  returns 0x00 (0001ms, 0498ms total)
T14E4 009:383 JLINK_ReadReg(R15 (PC))  returns 0x0000152A (0000ms, 0498ms total)
T14E4 009:383 JLINK_ReadReg(XPSR)  returns 0x21000000 (0000ms, 0498ms total)
T14E4 009:383 JLINK_ReadReg(R0)  returns 0x00000001 (0000ms, 0498ms total)
T14E4 009:383 JLINK_ReadReg(R1)  returns 0x00000007 (0000ms, 0498ms total)
T14E4 009:383 JLINK_ReadReg(R2)  returns 0x0000854C (0000ms, 0498ms total)
T14E4 009:383 JLINK_ReadReg(R3)  returns 0x00008000 (0000ms, 0498ms total)
T14E4 009:383 JLINK_ReadReg(R4)  returns 0x000015D0 (0000ms, 0498ms total)
T14E4 009:383 JLINK_ReadReg(R5)  returns 0x20000C00 (0000ms, 0498ms total)
T14E4 009:383 JLINK_ReadReg(R6)  returns 0x00000000 (0000ms, 0498ms total)
T14E4 009:383 JLINK_ReadReg(R7)  returns 0x00000000 (0000ms, 0498ms total)
T14E4 009:383 JLINK_ReadReg(R8)  returns 0x00000000 (0000ms, 0498ms total)
T14E4 009:383 JLINK_ReadReg(R9)  returns 0x201001BC (0001ms, 0499ms total)
T14E4 009:384 JLINK_ReadReg(R10)  returns 0x000015D0 (0000ms, 0499ms total)
T14E4 009:384 JLINK_ReadReg(R11)  returns 0x000015D0 (0000ms, 0499ms total)
T14E4 009:384 JLINK_ReadReg(R12)  returns 0x00000000 (0000ms, 0499ms total)
T14E4 009:384 JLINK_ReadReg(R13 (SP))  returns 0x20002BD8 (0000ms, 0499ms total)
T14E4 009:384 JLINK_ReadReg(R14)  returns 0x0000064F (0000ms, 0499ms total)
T14E4 009:384 JLINK_ReadReg(R15 (PC))  returns 0x0000152A (0000ms, 0499ms total)
T14E4 009:384 JLINK_ReadReg(XPSR)  returns 0x21000000 (0000ms, 0499ms total)
T14E4 009:384 JLINK_ReadReg(MSP)  returns 0x20002BD8 (0000ms, 0499ms total)
T14E4 009:384 JLINK_ReadReg(PSP)  returns 0x00000000 (0000ms, 0499ms total)
T14E4 009:384 JLINK_ReadReg(CFBP)  returns 0x00000000 (0000ms, 0499ms total)
T1164 009:387 JLINK_ReadMem (0x00001522, 0x0002 Bytes, ...) -- CPU_ReadMem(64 bytes @ 0x00001500) -- Updating DA cache (64 bytes @ 0x00001500) -- Read from DA cache (2 bytes @ 0x00001522) - Data: 09 49  returns 0x00 (0002ms, 0501ms total)
T1164 009:389 JLINK_ReadMem (0x00001524, 0x003C Bytes, ...) -- CPU_ReadMem(64 bytes @ 0x00001540) -- Updating DA cache (64 bytes @ 0x00001540) -- Read from DA cache (60 bytes @ 0x00001524) - Data: 02 20 FF F7 59 FD 9D E7 0E 00 00 20 D0 01 00 20 ...  returns 0x00 (0001ms, 0502ms total)
T1164 011:674 JLINK_ReadMem (0x00001466, 0x0002 Bytes, ...) -- Read from DA cache (2 bytes @ 0x00001466) - Data: 60 E0  returns 0x00 (0000ms, 0502ms total)
T1164 011:674 JLINK_ReadMem (0x00001468, 0x003C Bytes, ...) -- Read from DA cache (60 bytes @ 0x00001468) - Data: 03 A9 03 20 00 07 FF F7 D3 F8 00 28 1A D0 2E 4D ...  returns 0x00 (0000ms, 0502ms total)
T14E4 018:047 JLINK_SetBPEx(Addr = 0x0000145A, Type = 0xFFFFFFF2)  returns 0x00000006 (0000ms, 0502ms total)
T14E4 018:047 JLINK_SetBPEx(Addr = 0x00000FF4, Type = 0xFFFFFFF2)  returns 0x00000007 (0000ms, 0502ms total)
T14E4 018:047 JLINK_Go() -- CPU_WriteMem(4 bytes @ 0xE0002000) -- CPU_WriteMem(4 bytes @ 0xE0002000) -- CPU_ReadMem(4 bytes @ 0xE0001000) -- CPU_WriteMem(4 bytes @ 0xE0001000) -- CPU_WriteMem(4 bytes @ 0xE0002008) -- CPU_WriteMem(4 bytes @ 0xE000200C) -- CPU_WriteMem(4 bytes @ 0xE0001004) (0004ms, 0506ms total)
T14E4 018:151 JLINK_IsHalted()  returns TRUE (0004ms, 0510ms total)
T14E4 018:155 JLINK_Halt()  returns 0x00 (0000ms, 0506ms total)
T14E4 018:155 JLINK_IsHalted()  returns TRUE (0000ms, 0506ms total)
T14E4 018:155 JLINK_IsHalted()  returns TRUE (0000ms, 0506ms total)
T14E4 018:155 JLINK_IsHalted()  returns TRUE (0000ms, 0506ms total)
T14E4 018:155 JLINK_ReadReg(R15 (PC))  returns 0x00000FF4 (0000ms, 0506ms total)
T14E4 018:155 JLINK_ReadReg(XPSR)  returns 0x01000000 (0000ms, 0506ms total)
T14E4 018:155 JLINK_ClrBPEx(BPHandle = 0x00000006)  returns 0x00 (0000ms, 0506ms total)
T14E4 018:155 JLINK_ClrBPEx(BPHandle = 0x00000007)  returns 0x00 (0000ms, 0506ms total)
T14E4 018:155 JLINK_ReadMemU32(0xE000ED30, 0x0001 Items, ...) -- CPU_ReadMem(4 bytes @ 0xE000ED30) - Data: 02 00 00 00  returns 0x01 (0001ms, 0507ms total)
T14E4 018:156 JLINK_ReadMemU32(0xE0001028, 0x0001 Items, ...) -- CPU_ReadMem(4 bytes @ 0xE0001028) - Data: 00 00 00 00  returns 0x01 (0001ms, 0508ms total)
T14E4 018:157 JLINK_ReadMemU32(0xE0001038, 0x0001 Items, ...) -- CPU_ReadMem(4 bytes @ 0xE0001038) - Data: 00 00 00 00  returns 0x01 (0000ms, 0508ms total)
T14E4 018:158 JLINK_ReadReg(R0)  returns 0x000003E8 (0000ms, 0509ms total)
T14E4 018:158 JLINK_ReadReg(R1)  returns 0x20000000 (0000ms, 0509ms total)
T14E4 018:158 JLINK_ReadReg(R2)  returns 0x00000040 (0000ms, 0509ms total)
T14E4 018:158 JLINK_ReadReg(R3)  returns 0x00000000 (0000ms, 0509ms total)
T14E4 018:158 JLINK_ReadReg(R4)  returns 0x20000000 (0000ms, 0509ms total)
T14E4 018:158 JLINK_ReadReg(R5)  returns 0x00000001 (0000ms, 0509ms total)
T14E4 018:158 JLINK_ReadReg(R6)  returns 0x00000032 (0000ms, 0509ms total)
T14E4 018:158 JLINK_ReadReg(R7)  returns 0x00000000 (0000ms, 0509ms total)
T14E4 018:158 JLINK_ReadReg(R8)  returns 0x00000000 (0000ms, 0509ms total)
T14E4 018:158 JLINK_ReadReg(R9)  returns 0x201001BC (0000ms, 0509ms total)
T14E4 018:158 JLINK_ReadReg(R10)  returns 0x000015D0 (0000ms, 0509ms total)
T14E4 018:158 JLINK_ReadReg(R11)  returns 0x000015D0 (0000ms, 0509ms total)
T14E4 018:158 JLINK_ReadReg(R12)  returns 0x00000000 (0000ms, 0509ms total)
T14E4 018:158 JLINK_ReadReg(R13 (SP))  returns 0x20002BC8 (0000ms, 0509ms total)
T14E4 018:158 JLINK_ReadReg(R14)  returns 0x00001523 (0000ms, 0509ms total)
T14E4 018:158 JLINK_ReadReg(R15 (PC))  returns 0x00000FF4 (0000ms, 0509ms total)
T14E4 018:158 JLINK_ReadReg(XPSR)  returns 0x01000000 (0001ms, 0510ms total)
T14E4 018:159 JLINK_ReadReg(MSP)  returns 0x20002BC8 (0000ms, 0510ms total)
T14E4 018:159 JLINK_ReadReg(PSP)  returns 0x00000000 (0000ms, 0510ms total)
T14E4 018:159 JLINK_ReadReg(CFBP)  returns 0x00000000 (0000ms, 0510ms total)
T1164 018:161 JLINK_ReadMem (0x00000FEE, 0x0002 Bytes, ...) -- CPU_ReadMem(64 bytes @ 0x00000FC0) -- Updating DA cache (64 bytes @ 0x00000FC0) -- Read from DA cache (2 bytes @ 0x00000FEE) - Data: 7D 20  returns 0x00 (0001ms, 0511ms total)
T1164 018:162 JLINK_ReadMem (0x00000FF0, 0x0010 Bytes, ...) -- Read from DA cache (16 bytes @ 0x00000FF0) - Data: C0 00 20 60 28 46 FF F7 33 FB 70 BD F0 B5 89 B0  returns 0x00 (0001ms, 0512ms total)
T1164 018:163 JLINK_ReadMem (0x00001000, 0x002C Bytes, ...) -- CPU_ReadMem(64 bytes @ 0x00001000) -- Updating DA cache (64 bytes @ 0x00001000) -- Read from DA cache (44 bytes @ 0x00001000) - Data: 45 68 08 95 85 68 07 95 C5 68 06 95 05 69 05 95 ...  returns 0x00 (0001ms, 0513ms total)
T14E4 019:022 JLINK_Step() -- Read from DA cache (2 bytes @ 0x00000FF4) -- CPU_ReadMem(4 bytes @ 0xE0001004) -- Simulated  returns 0x00 (0001ms, 0514ms total)
T14E4 019:023 JLINK_ReadReg(R15 (PC))  returns 0x00000FF6 (0000ms, 0514ms total)
T14E4 019:023 JLINK_ReadReg(XPSR)  returns 0x01000000 (0000ms, 0514ms total)
T14E4 019:023 JLINK_SetBPEx(Addr = 0x0000145A, Type = 0xFFFFFFF2)  returns 0x00000008 (0000ms, 0514ms total)
T14E4 019:023 JLINK_SetBPEx(Addr = 0x00000FF4, Type = 0xFFFFFFF2)  returns 0x00000009 (0000ms, 0514ms total)
T14E4 019:023 JLINK_Go() -- CPU_WriteMem(4 bytes @ 0xE0002000) -- CPU_WriteMem(4 bytes @ 0xE0002000) -- CPU_ReadMem(4 bytes @ 0xE0001000) -- CPU_WriteMem(4 bytes @ 0xE0001000) -- CPU_WriteMem(4 bytes @ 0xE0001004) (0004ms, 0518ms total)
T14E4 019:127 JLINK_IsHalted()  returns TRUE (0004ms, 0522ms total)
T14E4 019:131 JLINK_Halt()  returns 0x00 (0000ms, 0518ms total)
T14E4 019:131 JLINK_IsHalted()  returns TRUE (0000ms, 0518ms total)
T14E4 019:131 JLINK_IsHalted()  returns TRUE (0000ms, 0518ms total)
T14E4 019:131 JLINK_IsHalted()  returns TRUE (0000ms, 0518ms total)
T14E4 019:131 JLINK_ReadReg(R15 (PC))  returns 0x00000FF4 (0000ms, 0518ms total)
T14E4 019:131 JLINK_ReadReg(XPSR)  returns 0x01000000 (0000ms, 0518ms total)
T14E4 019:131 JLINK_ClrBPEx(BPHandle = 0x00000008)  returns 0x00 (0000ms, 0518ms total)
T14E4 019:131 JLINK_ClrBPEx(BPHandle = 0x00000009)  returns 0x00 (0000ms, 0518ms total)
T14E4 019:131 JLINK_ReadMemU32(0xE000ED30, 0x0001 Items, ...) -- CPU_ReadMem(4 bytes @ 0xE000ED30) - Data: 02 00 00 00  returns 0x01 (0001ms, 0519ms total)
T14E4 019:132 JLINK_ReadMemU32(0xE0001028, 0x0001 Items, ...) -- CPU_ReadMem(4 bytes @ 0xE0001028) - Data: 00 00 00 00  returns 0x01 (0001ms, 0520ms total)
T14E4 019:133 JLINK_ReadMemU32(0xE0001038, 0x0001 Items, ...) -- CPU_ReadMem(4 bytes @ 0xE0001038) - Data: 00 00 00 00  returns 0x01 (0001ms, 0521ms total)
T14E4 019:134 JLINK_ReadReg(R0)  returns 0x000003E8 (0000ms, 0521ms total)
T14E4 019:134 JLINK_ReadReg(R1)  returns 0x20000004 (0000ms, 0521ms total)
T14E4 019:134 JLINK_ReadReg(R2)  returns 0x400B0000 (0000ms, 0521ms total)
T14E4 019:134 JLINK_ReadReg(R3)  returns 0x00000000 (0000ms, 0521ms total)
T14E4 019:134 JLINK_ReadReg(R4)  returns 0x20000004 (0000ms, 0521ms total)
T14E4 019:134 JLINK_ReadReg(R5)  returns 0x00000002 (0000ms, 0521ms total)
T14E4 019:134 JLINK_ReadReg(R6)  returns 0x00000032 (0000ms, 0521ms total)
T14E4 019:134 JLINK_ReadReg(R7)  returns 0x00000000 (0000ms, 0521ms total)
T14E4 019:134 JLINK_ReadReg(R8)  returns 0x00000000 (0000ms, 0521ms total)
T14E4 019:134 JLINK_ReadReg(R9)  returns 0x201001BC (0000ms, 0521ms total)
T14E4 019:134 JLINK_ReadReg(R10)  returns 0x000015D0 (0000ms, 0521ms total)
T14E4 019:134 JLINK_ReadReg(R11)  returns 0x000015D0 (0000ms, 0521ms total)
T14E4 019:134 JLINK_ReadReg(R12)  returns 0x00000000 (0000ms, 0521ms total)
T14E4 019:134 JLINK_ReadReg(R13 (SP))  returns 0x20002BC8 (0000ms, 0521ms total)
T14E4 019:134 JLINK_ReadReg(R14)  returns 0x0000152B (0000ms, 0521ms total)
T14E4 019:134 JLINK_ReadReg(R15 (PC))  returns 0x00000FF4 (0001ms, 0522ms total)
T14E4 019:135 JLINK_ReadReg(XPSR)  returns 0x01000000 (0000ms, 0522ms total)
T14E4 019:135 JLINK_ReadReg(MSP)  returns 0x20002BC8 (0000ms, 0522ms total)
T14E4 019:135 JLINK_ReadReg(PSP)  returns 0x00000000 (0000ms, 0522ms total)
T14E4 019:135 JLINK_ReadReg(CFBP)  returns 0x00000000 (0000ms, 0522ms total)
T14E4 019:998 JLINK_Step() -- CPU_ReadMem(64 bytes @ 0x00000FC0) -- Updating DA cache (64 bytes @ 0x00000FC0) -- Read from DA cache (2 bytes @ 0x00000FF4) -- CPU_ReadMem(4 bytes @ 0xE0001004) -- Simulated  returns 0x00 (0002ms, 0524ms total)
T14E4 020:000 JLINK_ReadReg(R15 (PC))  returns 0x00000FF6 (0000ms, 0524ms total)
T14E4 020:000 JLINK_ReadReg(XPSR)  returns 0x01000000 (0000ms, 0524ms total)
T14E4 020:000 JLINK_SetBPEx(Addr = 0x0000145A, Type = 0xFFFFFFF2)  returns 0x0000000A (0000ms, 0524ms total)
T14E4 020:000 JLINK_SetBPEx(Addr = 0x00000FF4, Type = 0xFFFFFFF2)  returns 0x0000000B (0000ms, 0524ms total)
T14E4 020:000 JLINK_Go() -- CPU_WriteMem(4 bytes @ 0xE0002000) -- CPU_WriteMem(4 bytes @ 0xE0002000) -- CPU_ReadMem(4 bytes @ 0xE0001000) -- CPU_WriteMem(4 bytes @ 0xE0001000) -- CPU_WriteMem(4 bytes @ 0xE0001004) (0004ms, 0528ms total)
T14E4 020:104 JLINK_IsHalted()  returns TRUE (0004ms, 0532ms total)
T14E4 020:108 JLINK_Halt()  returns 0x00 (0000ms, 0528ms total)
T14E4 020:108 JLINK_IsHalted()  returns TRUE (0000ms, 0528ms total)
T14E4 020:108 JLINK_IsHalted()  returns TRUE (0000ms, 0528ms total)
T14E4 020:108 JLINK_IsHalted()  returns TRUE (0000ms, 0528ms total)
T14E4 020:108 JLINK_ReadReg(R15 (PC))  returns 0x00000FF4 (0000ms, 0528ms total)
T14E4 020:108 JLINK_ReadReg(XPSR)  returns 0x01000000 (0000ms, 0528ms total)
T14E4 020:108 JLINK_ClrBPEx(BPHandle = 0x0000000A)  returns 0x00 (0000ms, 0528ms total)
T14E4 020:108 JLINK_ClrBPEx(BPHandle = 0x0000000B)  returns 0x00 (0000ms, 0528ms total)
T14E4 020:108 JLINK_ReadMemU32(0xE000ED30, 0x0001 Items, ...) -- CPU_ReadMem(4 bytes @ 0xE000ED30) - Data: 02 00 00 00  returns 0x01 (0001ms, 0529ms total)
T14E4 020:109 JLINK_ReadMemU32(0xE0001028, 0x0001 Items, ...) -- CPU_ReadMem(4 bytes @ 0xE0001028) - Data: 00 00 00 00  returns 0x01 (0001ms, 0530ms total)
T14E4 020:110 JLINK_ReadMemU32(0xE0001038, 0x0001 Items, ...) -- CPU_ReadMem(4 bytes @ 0xE0001038) - Data: 00 00 00 00  returns 0x01 (0000ms, 0530ms total)
T14E4 020:111 JLINK_ReadReg(R0)  returns 0x000003E8 (0000ms, 0530ms total)
T14E4 020:111 JLINK_ReadReg(R1)  returns 0x20000000 (0000ms, 0530ms total)
T14E4 020:111 JLINK_ReadReg(R2)  returns 0x00000040 (0000ms, 0530ms total)
T14E4 020:111 JLINK_ReadReg(R3)  returns 0x00000000 (0000ms, 0530ms total)
T14E4 020:111 JLINK_ReadReg(R4)  returns 0x20000000 (0000ms, 0530ms total)
T14E4 020:111 JLINK_ReadReg(R5)  returns 0x00000001 (0000ms, 0530ms total)
T14E4 020:111 JLINK_ReadReg(R6)  returns 0x00000032 (0000ms, 0530ms total)
T14E4 020:111 JLINK_ReadReg(R7)  returns 0x00000000 (0000ms, 0530ms total)
T14E4 020:111 JLINK_ReadReg(R8)  returns 0x00000000 (0000ms, 0530ms total)
T14E4 020:111 JLINK_ReadReg(R9)  returns 0x201001BC (0000ms, 0530ms total)
T14E4 020:111 JLINK_ReadReg(R10)  returns 0x000015D0 (0000ms, 0530ms total)
T14E4 020:111 JLINK_ReadReg(R11)  returns 0x000015D0 (0000ms, 0530ms total)
T14E4 020:111 JLINK_ReadReg(R12)  returns 0x00000000 (0000ms, 0530ms total)
T14E4 020:111 JLINK_ReadReg(R13 (SP))  returns 0x20002BC8 (0000ms, 0530ms total)
T14E4 020:111 JLINK_ReadReg(R14)  returns 0x00001523 (0000ms, 0530ms total)
T14E4 020:111 JLINK_ReadReg(R15 (PC))  returns 0x00000FF4 (0000ms, 0530ms total)
T14E4 020:111 JLINK_ReadReg(XPSR)  returns 0x01000000 (0001ms, 0531ms total)
T14E4 020:112 JLINK_ReadReg(MSP)  returns 0x20002BC8 (0000ms, 0531ms total)
T14E4 020:112 JLINK_ReadReg(PSP)  returns 0x00000000 (0000ms, 0531ms total)
T14E4 020:112 JLINK_ReadReg(CFBP)  returns 0x00000000 (0000ms, 0531ms total)
T14E4 026:382 JLINK_Step() -- CPU_ReadMem(64 bytes @ 0x00000FC0) -- Updating DA cache (64 bytes @ 0x00000FC0) -- Read from DA cache (2 bytes @ 0x00000FF4) -- CPU_ReadMem(4 bytes @ 0xE0001004) -- Simulated  returns 0x00 (0002ms, 0533ms total)
T14E4 026:384 JLINK_ReadReg(R15 (PC))  returns 0x00000FF6 (0000ms, 0533ms total)
T14E4 026:384 JLINK_ReadReg(XPSR)  returns 0x01000000 (0000ms, 0533ms total)
T14E4 026:384 JLINK_SetBPEx(Addr = 0x0000145A, Type = 0xFFFFFFF2)  returns 0x0000000C (0000ms, 0533ms total)
T14E4 026:384 JLINK_SetBPEx(Addr = 0x00000FF4, Type = 0xFFFFFFF2)  returns 0x0000000D (0000ms, 0533ms total)
T14E4 026:384 JLINK_Go() -- CPU_WriteMem(4 bytes @ 0xE0002000) -- CPU_WriteMem(4 bytes @ 0xE0002000) -- CPU_ReadMem(4 bytes @ 0xE0001000) -- CPU_WriteMem(4 bytes @ 0xE0001000) -- CPU_WriteMem(4 bytes @ 0xE0001004) (0004ms, 0537ms total)
T14E4 026:488 JLINK_IsHalted()  returns TRUE (0004ms, 0541ms total)
T14E4 026:492 JLINK_Halt()  returns 0x00 (0000ms, 0537ms total)
T14E4 026:492 JLINK_IsHalted()  returns TRUE (0000ms, 0537ms total)
T14E4 026:492 JLINK_IsHalted()  returns TRUE (0000ms, 0537ms total)
T14E4 026:492 JLINK_IsHalted()  returns TRUE (0000ms, 0537ms total)
T14E4 026:492 JLINK_ReadReg(R15 (PC))  returns 0x00000FF4 (0000ms, 0537ms total)
T14E4 026:492 JLINK_ReadReg(XPSR)  returns 0x01000000 (0000ms, 0537ms total)
T14E4 026:492 JLINK_ClrBPEx(BPHandle = 0x0000000C)  returns 0x00 (0000ms, 0537ms total)
T14E4 026:492 JLINK_ClrBPEx(BPHandle = 0x0000000D)  returns 0x00 (0000ms, 0537ms total)
T14E4 026:492 JLINK_ReadMemU32(0xE000ED30, 0x0001 Items, ...) -- CPU_ReadMem(4 bytes @ 0xE000ED30) - Data: 02 00 00 00  returns 0x01 (0001ms, 0538ms total)
T14E4 026:493 JLINK_ReadMemU32(0xE0001028, 0x0001 Items, ...) -- CPU_ReadMem(4 bytes @ 0xE0001028) - Data: 00 00 00 00  returns 0x01 (0001ms, 0539ms total)
T14E4 026:494 JLINK_ReadMemU32(0xE0001038, 0x0001 Items, ...) -- CPU_ReadMem(4 bytes @ 0xE0001038) - Data: 00 00 00 00  returns 0x01 (0000ms, 0539ms total)
T14E4 026:494 JLINK_ReadReg(R0)  returns 0x000003E8 (0000ms, 0539ms total)
T14E4 026:494 JLINK_ReadReg(R1)  returns 0x20000004 (0001ms, 0540ms total)
T14E4 026:495 JLINK_ReadReg(R2)  returns 0x400B0000 (0000ms, 0540ms total)
T14E4 026:495 JLINK_ReadReg(R3)  returns 0x00000000 (0000ms, 0540ms total)
T14E4 026:495 JLINK_ReadReg(R4)  returns 0x20000004 (0000ms, 0540ms total)
T14E4 026:495 JLINK_ReadReg(R5)  returns 0x00000002 (0000ms, 0540ms total)
T14E4 026:495 JLINK_ReadReg(R6)  returns 0x00000032 (0000ms, 0540ms total)
T14E4 026:495 JLINK_ReadReg(R7)  returns 0x00000000 (0000ms, 0540ms total)
T14E4 026:495 JLINK_ReadReg(R8)  returns 0x00000000 (0000ms, 0540ms total)
T14E4 026:495 JLINK_ReadReg(R9)  returns 0x201001BC (0000ms, 0540ms total)
T14E4 026:495 JLINK_ReadReg(R10)  returns 0x000015D0 (0000ms, 0540ms total)
T14E4 026:495 JLINK_ReadReg(R11)  returns 0x000015D0 (0000ms, 0540ms total)
T14E4 026:495 JLINK_ReadReg(R12)  returns 0x00000000 (0000ms, 0540ms total)
T14E4 026:495 JLINK_ReadReg(R13 (SP))  returns 0x20002BC8 (0000ms, 0540ms total)
T14E4 026:495 JLINK_ReadReg(R14)  returns 0x0000152B (0000ms, 0540ms total)
T14E4 026:495 JLINK_ReadReg(R15 (PC))  returns 0x00000FF4 (0000ms, 0540ms total)
T14E4 026:495 JLINK_ReadReg(XPSR)  returns 0x01000000 (0000ms, 0540ms total)
T14E4 026:495 JLINK_ReadReg(MSP)  returns 0x20002BC8 (0000ms, 0540ms total)
T14E4 026:495 JLINK_ReadReg(PSP)  returns 0x00000000 (0000ms, 0540ms total)
T14E4 026:495 JLINK_ReadReg(CFBP)  returns 0x00000000 (0000ms, 0540ms total)
T14E4 027:534 JLINK_Step() -- CPU_ReadMem(64 bytes @ 0x00000FC0) -- Updating DA cache (64 bytes @ 0x00000FC0) -- Read from DA cache (2 bytes @ 0x00000FF4) -- CPU_ReadMem(4 bytes @ 0xE0001004) -- Simulated  returns 0x00 (0002ms, 0542ms total)
T14E4 027:536 JLINK_ReadReg(R15 (PC))  returns 0x00000FF6 (0000ms, 0542ms total)
T14E4 027:536 JLINK_ReadReg(XPSR)  returns 0x01000000 (0000ms, 0542ms total)
T14E4 027:536 JLINK_SetBPEx(Addr = 0x0000145A, Type = 0xFFFFFFF2)  returns 0x0000000E (0000ms, 0542ms total)
T14E4 027:536 JLINK_SetBPEx(Addr = 0x00000FF4, Type = 0xFFFFFFF2)  returns 0x0000000F (0000ms, 0542ms total)
T14E4 027:536 JLINK_Go() -- CPU_WriteMem(4 bytes @ 0xE0002000) -- CPU_WriteMem(4 bytes @ 0xE0002000) -- CPU_ReadMem(4 bytes @ 0xE0001000) -- CPU_WriteMem(4 bytes @ 0xE0001000) -- CPU_WriteMem(4 bytes @ 0xE0001004) (0003ms, 0545ms total)
T14E4 027:640 JLINK_IsHalted()  returns TRUE (0004ms, 0550ms total)
T14E4 027:644 JLINK_Halt()  returns 0x00 (0000ms, 0546ms total)
T14E4 027:644 JLINK_IsHalted()  returns TRUE (0000ms, 0546ms total)
T14E4 027:644 JLINK_IsHalted()  returns TRUE (0000ms, 0546ms total)
T14E4 027:644 JLINK_IsHalted()  returns TRUE (0000ms, 0546ms total)
T14E4 027:644 JLINK_ReadReg(R15 (PC))  returns 0x00000FF4 (0000ms, 0546ms total)
T14E4 027:644 JLINK_ReadReg(XPSR)  returns 0x01000000 (0000ms, 0546ms total)
T14E4 027:644 JLINK_ClrBPEx(BPHandle = 0x0000000E)  returns 0x00 (0000ms, 0546ms total)
T14E4 027:644 JLINK_ClrBPEx(BPHandle = 0x0000000F)  returns 0x00 (0000ms, 0546ms total)
T14E4 027:644 JLINK_ReadMemU32(0xE000ED30, 0x0001 Items, ...) -- CPU_ReadMem(4 bytes @ 0xE000ED30) - Data: 02 00 00 00  returns 0x01 (0001ms, 0547ms total)
T14E4 027:645 JLINK_ReadMemU32(0xE0001028, 0x0001 Items, ...) -- CPU_ReadMem(4 bytes @ 0xE0001028) - Data: 00 00 00 00  returns 0x01 (0001ms, 0548ms total)
T14E4 027:646 JLINK_ReadMemU32(0xE0001038, 0x0001 Items, ...) -- CPU_ReadMem(4 bytes @ 0xE0001038) - Data: 00 00 00 00  returns 0x01 (0000ms, 0548ms total)
T14E4 027:647 JLINK_ReadReg(R0)  returns 0x000003E8 (0000ms, 0548ms total)
T14E4 027:647 JLINK_ReadReg(R1)  returns 0x20000000 (0000ms, 0548ms total)
T14E4 027:647 JLINK_ReadReg(R2)  returns 0x00000040 (0000ms, 0548ms total)
T14E4 027:647 JLINK_ReadReg(R3)  returns 0x00000000 (0000ms, 0548ms total)
T14E4 027:647 JLINK_ReadReg(R4)  returns 0x20000000 (0000ms, 0548ms total)
T14E4 027:647 JLINK_ReadReg(R5)  returns 0x00000001 (0000ms, 0548ms total)
T14E4 027:647 JLINK_ReadReg(R6)  returns 0x00000032 (0000ms, 0548ms total)
T14E4 027:647 JLINK_ReadReg(R7)  returns 0x00000000 (0000ms, 0548ms total)
T14E4 027:647 JLINK_ReadReg(R8)  returns 0x00000000 (0000ms, 0548ms total)
T14E4 027:647 JLINK_ReadReg(R9)  returns 0x201001BC (0000ms, 0548ms total)
T14E4 027:647 JLINK_ReadReg(R10)  returns 0x000015D0 (0000ms, 0548ms total)
T14E4 027:647 JLINK_ReadReg(R11)  returns 0x000015D0 (0000ms, 0548ms total)
T14E4 027:647 JLINK_ReadReg(R12)  returns 0x00000000 (0000ms, 0548ms total)
T14E4 027:647 JLINK_ReadReg(R13 (SP))  returns 0x20002BC8 (0000ms, 0548ms total)
T14E4 027:647 JLINK_ReadReg(R14)  returns 0x00001523 (0000ms, 0548ms total)
T14E4 027:647 JLINK_ReadReg(R15 (PC))  returns 0x00000FF4 (0001ms, 0549ms total)
T14E4 027:648 JLINK_ReadReg(XPSR)  returns 0x01000000 (0000ms, 0549ms total)
T14E4 027:648 JLINK_ReadReg(MSP)  returns 0x20002BC8 (0000ms, 0549ms total)
T14E4 027:648 JLINK_ReadReg(PSP)  returns 0x00000000 (0000ms, 0549ms total)
T14E4 027:648 JLINK_ReadReg(CFBP)  returns 0x00000000 (0000ms, 0549ms total)
T14E4 028:182 JLINK_Step() -- CPU_ReadMem(64 bytes @ 0x00000FC0) -- Updating DA cache (64 bytes @ 0x00000FC0) -- Read from DA cache (2 bytes @ 0x00000FF4) -- CPU_ReadMem(4 bytes @ 0xE0001004) -- Simulated  returns 0x00 (0002ms, 0551ms total)
T14E4 028:184 JLINK_ReadReg(R15 (PC))  returns 0x00000FF6 (0000ms, 0551ms total)
T14E4 028:184 JLINK_ReadReg(XPSR)  returns 0x01000000 (0000ms, 0551ms total)
T14E4 028:184 JLINK_SetBPEx(Addr = 0x0000145A, Type = 0xFFFFFFF2)  returns 0x00000010 (0000ms, 0551ms total)
T14E4 028:184 JLINK_SetBPEx(Addr = 0x00000FF4, Type = 0xFFFFFFF2)  returns 0x00000011 (0000ms, 0551ms total)
T14E4 028:184 JLINK_Go() -- CPU_WriteMem(4 bytes @ 0xE0002000) -- CPU_WriteMem(4 bytes @ 0xE0002000) -- CPU_ReadMem(4 bytes @ 0xE0001000) -- CPU_WriteMem(4 bytes @ 0xE0001000) -- CPU_WriteMem(4 bytes @ 0xE0001004) (0004ms, 0555ms total)
T14E4 028:288 JLINK_IsHalted()  returns TRUE (0004ms, 0559ms total)
T14E4 028:292 JLINK_Halt()  returns 0x00 (0000ms, 0555ms total)
T14E4 028:292 JLINK_IsHalted()  returns TRUE (0000ms, 0555ms total)
T14E4 028:292 JLINK_IsHalted()  returns TRUE (0000ms, 0555ms total)
T14E4 028:292 JLINK_IsHalted()  returns TRUE (0000ms, 0555ms total)
T14E4 028:292 JLINK_ReadReg(R15 (PC))  returns 0x00000FF4 (0000ms, 0555ms total)
T14E4 028:292 JLINK_ReadReg(XPSR)  returns 0x01000000 (0000ms, 0555ms total)
T14E4 028:292 JLINK_ClrBPEx(BPHandle = 0x00000010)  returns 0x00 (0000ms, 0555ms total)
T14E4 028:292 JLINK_ClrBPEx(BPHandle = 0x00000011)  returns 0x00 (0000ms, 0555ms total)
T14E4 028:292 JLINK_ReadMemU32(0xE000ED30, 0x0001 Items, ...) -- CPU_ReadMem(4 bytes @ 0xE000ED30) - Data: 02 00 00 00  returns 0x01 (0001ms, 0556ms total)
T14E4 028:293 JLINK_ReadMemU32(0xE0001028, 0x0001 Items, ...) -- CPU_ReadMem(4 bytes @ 0xE0001028) - Data: 00 00 00 00  returns 0x01 (0001ms, 0557ms total)
T14E4 028:294 JLINK_ReadMemU32(0xE0001038, 0x0001 Items, ...) -- CPU_ReadMem(4 bytes @ 0xE0001038) - Data: 00 00 00 00  returns 0x01 (0000ms, 0557ms total)
T14E4 028:295 JLINK_ReadReg(R0)  returns 0x000003E8 (0000ms, 0558ms total)
T14E4 028:295 JLINK_ReadReg(R1)  returns 0x20000004 (0000ms, 0558ms total)
T14E4 028:295 JLINK_ReadReg(R2)  returns 0x400B0000 (0000ms, 0558ms total)
T14E4 028:295 JLINK_ReadReg(R3)  returns 0x00000000 (0000ms, 0558ms total)
T14E4 028:295 JLINK_ReadReg(R4)  returns 0x20000004 (0000ms, 0558ms total)
T14E4 028:295 JLINK_ReadReg(R5)  returns 0x00000002 (0000ms, 0558ms total)
T14E4 028:295 JLINK_ReadReg(R6)  returns 0x00000032 (0000ms, 0558ms total)
T14E4 028:295 JLINK_ReadReg(R7)  returns 0x00000000 (0000ms, 0558ms total)
T14E4 028:295 JLINK_ReadReg(R8)  returns 0x00000000 (0000ms, 0558ms total)
T14E4 028:295 JLINK_ReadReg(R9)  returns 0x201001BC (0000ms, 0558ms total)
T14E4 028:295 JLINK_ReadReg(R10)  returns 0x000015D0 (0000ms, 0558ms total)
T14E4 028:295 JLINK_ReadReg(R11)  returns 0x000015D0 (0000ms, 0558ms total)
T14E4 028:295 JLINK_ReadReg(R12)  returns 0x00000000 (0000ms, 0558ms total)
T14E4 028:295 JLINK_ReadReg(R13 (SP))  returns 0x20002BC8 (0000ms, 0558ms total)
T14E4 028:295 JLINK_ReadReg(R14)  returns 0x0000152B (0000ms, 0558ms total)
T14E4 028:295 JLINK_ReadReg(R15 (PC))  returns 0x00000FF4 (0000ms, 0558ms total)
T14E4 028:295 JLINK_ReadReg(XPSR)  returns 0x01000000 (0001ms, 0559ms total)
T14E4 028:296 JLINK_ReadReg(MSP)  returns 0x20002BC8 (0000ms, 0559ms total)
T14E4 028:296 JLINK_ReadReg(PSP)  returns 0x00000000 (0000ms, 0559ms total)
T14E4 028:296 JLINK_ReadReg(CFBP)  returns 0x00000000 (0000ms, 0559ms total)
T14E4 029:030 JLINK_Step() -- CPU_ReadMem(64 bytes @ 0x00000FC0) -- Updating DA cache (64 bytes @ 0x00000FC0) -- Read from DA cache (2 bytes @ 0x00000FF4) -- CPU_ReadMem(4 bytes @ 0xE0001004) -- Simulated  returns 0x00 (0002ms, 0561ms total)
T14E4 029:032 JLINK_ReadReg(R15 (PC))  returns 0x00000FF6 (0000ms, 0561ms total)
T14E4 029:032 JLINK_ReadReg(XPSR)  returns 0x01000000 (0000ms, 0561ms total)
T14E4 029:032 JLINK_SetBPEx(Addr = 0x0000145A, Type = 0xFFFFFFF2)  returns 0x00000012 (0000ms, 0561ms total)
T14E4 029:032 JLINK_SetBPEx(Addr = 0x00000FF4, Type = 0xFFFFFFF2)  returns 0x00000013 (0000ms, 0561ms total)
T14E4 029:032 JLINK_Go() -- CPU_WriteMem(4 bytes @ 0xE0002000) -- CPU_WriteMem(4 bytes @ 0xE0002000) -- CPU_ReadMem(4 bytes @ 0xE0001000) -- CPU_WriteMem(4 bytes @ 0xE0001000) -- CPU_WriteMem(4 bytes @ 0xE0001004) (0004ms, 0565ms total)
T14E4 029:136 JLINK_IsHalted()  returns TRUE (0004ms, 0569ms total)
T14E4 029:140 JLINK_Halt()  returns 0x00 (0000ms, 0565ms total)
T14E4 029:140 JLINK_IsHalted()  returns TRUE (0000ms, 0565ms total)
T14E4 029:140 JLINK_IsHalted()  returns TRUE (0000ms, 0565ms total)
T14E4 029:140 JLINK_IsHalted()  returns TRUE (0000ms, 0565ms total)
T14E4 029:140 JLINK_ReadReg(R15 (PC))  returns 0x00000FF4 (0000ms, 0565ms total)
T14E4 029:140 JLINK_ReadReg(XPSR)  returns 0x01000000 (0000ms, 0565ms total)
T14E4 029:140 JLINK_ClrBPEx(BPHandle = 0x00000012)  returns 0x00 (0000ms, 0565ms total)
T14E4 029:140 JLINK_ClrBPEx(BPHandle = 0x00000013)  returns 0x00 (0000ms, 0565ms total)
T14E4 029:140 JLINK_ReadMemU32(0xE000ED30, 0x0001 Items, ...) -- CPU_ReadMem(4 bytes @ 0xE000ED30) - Data: 02 00 00 00  returns 0x01 (0001ms, 0566ms total)
